
T0968 000:516 SEGGER J-Link V4.80g Log File (0000ms, 0279ms total)
T0968 000:516 DLL Compiled: Feb 13 2014 20:50:02 (0000ms, 0279ms total)
T0968 000:516 Logging started @ 2016-01-14 13:56 (0000ms, 0279ms total)
T0968 000:516 JLINK_SetWarnOutHandler(...) (0000ms, 0279ms total)
T0968 000:516 JLINK_OpenEx(...)
Firmware: J-Link ARM V8 compiled Nov 25 2013 19:20:08
Hardware: V8.00
Feature(s): RDI,FlashDL,FlashBP,JFlash,GDBFULL  returns O.K. (0273ms, 0552ms total)
T0968 000:789 JLINK_SetErrorOutHandler(...) (0000ms, 0552ms total)
T0968 000:789 JLINK_ExecCommand("ProjectFile = "D:\Code\Git\3D_Gesture_Reconition\JLinkSettings.ini"", ...)  returns 0x00 (0001ms, 0553ms total)
T0968 000:790 JLINK_ExecCommand("Device = STM32F103RB", ...)Device "STM32F103RB" selected (128 KB flash, 20 KB RAM).  returns 0x00 (0002ms, 0555ms total)
T0968 000:792 JLINK_ExecCommand("DisableConnectionTimeout", ...)  returns 0x01 (0000ms, 0555ms total)
T0968 000:792 JLINK_GetHardwareVersion()  returns 0x13880 (0000ms, 0555ms total)
T0968 000:792 JLINK_GetDLLVersion()  returns 48007 (0000ms, 0555ms total)
T0968 000:792 JLINK_GetFirmwareString(...) (0000ms, 0555ms total)
T0968 000:795 JLINK_GetDLLVersion()  returns 48007 (0000ms, 0555ms total)
T0968 000:795 JLINK_GetCompileDateTime() (0000ms, 0555ms total)
T0968 000:796 JLINK_GetFirmwareString(...) (0000ms, 0555ms total)
T0968 000:797 JLINK_GetHardwareVersion()  returns 0x13880 (0000ms, 0555ms total)
T0968 000:804 JLINK_TIF_Select(JLINKARM_TIF_SWD)  returns 0x00 (0001ms, 0556ms total)
T0968 000:805 JLINK_SetSpeed(2000) (0000ms, 0556ms total)
T0968 000:805 JLINK_GetId() >0x108 TIF>Found SWD-DP with ID 0x1BA01477 >0x0D TIF> >0x28 TIF> >0x0D TIF> >0x28 TIF> >0x0D TIF> >0x21 TIF> >0x0D TIF> >0x28 TIF> >0x0D TIF> >0x28 TIF> >0x0D TIF> >0x28 TIF> >0x0D TIF> >0x21 TIF> >0x0D TIF> >0x21 TIF> >0x0D TIF> >0x28 TIF> >0x0D TIF> >0x21 TIF> >0x0D TIF> >0x21 TIF> >0x108 TIF>Found SWD-DP with ID 0x1BA01477 >0x0D TIF> >0x21 TIF> >0x0D TIF> >0x28 TIF> >0x0D TIF> >0x28 TIF> >0x0D TIF> >0x21 TIF> >0x0D TIF> >0x28 TIF> >0x0D TIF> >0x21 TIF> >0x0D TIF> >0x21 TIF>
 >0x0D TIF> >0x21 TIF> >0x0D TIF> >0x21 TIF> >0x0D TIF> >0x28 TIF> >0x0D TIF> >0x28 TIF> >0x0D TIF> >0x21 TIF> >0x0D TIF> >0x28 TIF> >0x0D TIF> >0x28 TIF> >0x0D TIF> >0x28 TIF> >0x0D TIF> >0x21 TIF> >0x0D TIF> >0x21 TIF> >0x0D TIF> >0x28 TIF> >0x0D TIF> >0x21 TIF> >0x0D TIF> >0x21 TIF>Found Cortex-M3 r1p1, Little endian. -- CPU_WriteMem(4 bytes @ 0xE0002000) -- CPU_ReadMem(4 bytes @ 0xE000EDF0) -- CPU_ReadMem(4 bytes @ 0xE0002000)FPUnit: 6 code (BP) slots and 2 literal slots
 -- CPU_ReadMem(4 bytes @ 0xE000EDFC) -- CPU_ReadMem(4 bytes @ 0xE0001000) -- CPU_WriteMem(4 bytes @ 0xE0001000) -- CPU_ReadMem(4 bytes @ 0xE00FF010)TPIU fitted. -- CPU_ReadMem(4 bytes @ 0xE00FF014) -- CPU_ReadMem(4 bytes @ 0xE00FF018) >0x0D TIF> >0x21 TIF>  returns 0x1BA01477 (0034ms, 0590ms total)
T0968 000:839 JLINK_GetDeviceFamily()  returns 3 (0000ms, 0590ms total)
T0968 000:839 JLINK_ReadMem (0xE00FFFF0, 0x0010 Bytes, ...) -- CPU is running -- CPU_ReadMem(16 bytes @ 0xE00FFFF0) -- Data:  0D 00 00 00 10 00 00 00 05 00 00 00 B1 00 00 00  returns 0x00 (0001ms, 0591ms total)
T0968 000:840 JLINK_ReadMem (0xE00FFFD0, 0x0020 Bytes, ...) -- CPU is running -- CPU_ReadMem(32 bytes @ 0xE00FFFD0) -- Data:  00 00 00 00 00 00 00 00 00 00 00 00 00 00 00 00 ...  returns 0x00 (0001ms, 0592ms total)
T0968 000:841 JLINK_ReadMem (0xE00FF000, 0x0018 Bytes, ...) -- CPU is running -- CPU_ReadMem(24 bytes @ 0xE00FF000) -- Data:  03 F0 F0 FF 03 20 F0 FF 03 30 F0 FF 03 10 F0 FF ...  returns 0x00 (0000ms, 0592ms total)
T0968 000:842 JLINK_ReadMemU32(0xE000ED00, 0x0001 Items, ...) -- CPU is running -- CPU_ReadMem(4 bytes @ 0xE000ED00) -- Data:  31 C2 1F 41  returns 0x01 (0000ms, 0593ms total)
T0968 000:842 JLINK_SetResetType(JLINKARM_RESET_TYPE_NORMAL)  returns JLINKARM_RESET_TYPE_NORMAL (0000ms, 0593ms total)
T0968 000:842 JLINK_Reset() -- CPU is running -- CPU_WriteMem(4 bytes @ 0xE000EDF0) -- CPU is running -- CPU_WriteMem(4 bytes @ 0xE000EDFC) >0x35 TIF> -- CPU is running -- CPU_WriteMem(4 bytes @ 0xE000ED0C) -- CPU is running -- CPU_ReadMem(4 bytes @ 0xE000EDF0) -- CPU is running -- CPU_ReadMem(4 bytes @ 0xE000EDF0) -- CPU is running -- CPU_WriteMem(4 bytes @ 0xE000EDF0) -- CPU is running -- CPU_WriteMem(4 bytes @ 0xE000EDFC) -- CPU is running -- CPU_ReadMem(4 bytes @ 0xE000EDF0)
 -- CPU_WriteMem(4 bytes @ 0xE0002000) -- CPU_ReadMem(4 bytes @ 0xE000EDFC) -- CPU_ReadMem(4 bytes @ 0xE0001000) (0020ms, 0613ms total)
T0968 000:862 JLINK_ReadReg(R15 (PC))  returns 0x08001944 (0000ms, 0613ms total)
T0968 000:862 JLINK_ReadReg(XPSR)  returns 0x01000000 (0000ms, 0613ms total)
T0968 000:862 JLINK_Halt()  returns 0x00 (0001ms, 0614ms total)
T0968 000:863 JLINK_IsHalted()  returns TRUE (0000ms, 0614ms total)
T0968 000:863 JLINK_ReadMemU32(0xE000EDF0, 0x0001 Items, ...) -- CPU_ReadMem(4 bytes @ 0xE000EDF0) -- Data:  03 00 03 00  returns 0x01 (0000ms, 0614ms total)
T0968 000:863 JLINK_WriteU32(0xE000EDF0, 0xA05F0003) -- CPU_WriteMem(4 bytes @ 0xE000EDF0)  returns 0x00 (0001ms, 0615ms total)
T0968 000:864 JLINK_WriteU32(0xE000EDFC, 0x01000000) -- CPU_WriteMem(4 bytes @ 0xE000EDFC)  returns 0x00 (0000ms, 0615ms total)
T0968 000:866 JLINK_GetHWStatus(...)  returns 0x00 (0000ms, 0615ms total)
T0968 000:867 JLINK_GetNumBPUnits(Type = 0xFFFFFF00)  returns 0x06 (0000ms, 0615ms total)
T0968 000:867 JLINK_GetNumBPUnits(Type = 0xF0)  returns 0x2000 (0000ms, 0615ms total)
T0968 000:867 JLINK_GetNumWPUnits()  returns 0x04 (0000ms, 0615ms total)
T0968 000:867 JLINK_GetSpeed()  returns 0x7D0 (0000ms, 0615ms total)
T0968 000:868 JLINK_ReadMemU32(0xE000E004, 0x0001 Items, ...) -- CPU_ReadMem(4 bytes @ 0xE000E004) -- Data:  01 00 00 00  returns 0x01 (0000ms, 0615ms total)
T0968 000:868 JLINK_ReadMemU32(0xE000E004, 0x0001 Items, ...) -- CPU_ReadMem(4 bytes @ 0xE000E004) -- Data:  01 00 00 00  returns 0x01 (0001ms, 0616ms total)
T0968 000:869 JLINK_WriteMem(0xE0001000, 0x001C Bytes, ...) -- Data:  01 00 00 00 00 00 00 00 00 00 00 00 00 00 00 00 ... -- CPU_WriteMem(28 bytes @ 0xE0001000)  returns 0x1C (0001ms, 0617ms total)
T0968 000:870 JLINK_ReadMem (0xE0001000, 0x001C Bytes, ...) -- CPU_ReadMem(28 bytes @ 0xE0001000) -- Data:  01 00 00 40 00 00 00 00 00 00 00 00 00 00 00 00 ...  returns 0x00 (0001ms, 0618ms total)
T0968 000:871 JLINK_ReadReg(R15 (PC))  returns 0x08001944 (0000ms, 0618ms total)
T0968 000:871 JLINK_ReadReg(XPSR)  returns 0x01000000 (0000ms, 0618ms total)
T0968 000:994 JLINK_SetResetType(JLINKARM_RESET_TYPE_NORMAL)  returns JLINKARM_RESET_TYPE_NORMAL (0000ms, 0618ms total)
T0968 000:994 JLINK_Reset() -- CPU_WriteMem(4 bytes @ 0xE000EDF0) -- CPU_WriteMem(4 bytes @ 0xE000EDFC) >0x35 TIF> -- CPU_WriteMem(4 bytes @ 0xE000ED0C) -- CPU_ReadMem(4 bytes @ 0xE000EDF0) -- CPU_ReadMem(4 bytes @ 0xE000EDF0) -- CPU_WriteMem(4 bytes @ 0xE000EDF0) -- CPU_WriteMem(4 bytes @ 0xE000EDFC) -- CPU is running -- CPU_ReadMem(4 bytes @ 0xE000EDF0) -- CPU_WriteMem(4 bytes @ 0xE0002000) -- CPU_ReadMem(4 bytes @ 0xE000EDFC) -- CPU_ReadMem(4 bytes @ 0xE0001000) (0021ms, 0639ms total)
T0968 001:016 JLINK_ReadReg(R15 (PC))  returns 0x08001944 (0000ms, 0639ms total)
T0968 001:016 JLINK_ReadReg(XPSR)  returns 0x01000000 (0000ms, 0639ms total)
T0968 001:017 JLINK_ReadMem (0x08001844, 0x003C Bytes, ...) -- CPU_ReadMem(64 bytes @ 0x08001840) -- Updating C cache (64 bytes @ 0x08001840) -- Read from C cache (60 bytes @ 0x08001844) -- Data:  1A 46 0A 60 70 47 2D E9 F0 41 04 46 4F F0 00 08 ...  returns 0x00 (0002ms, 0641ms total)
T0968 001:019 JLINK_ReadMem (0x08001880, 0x003C Bytes, ...) -- CPU_ReadMem(64 bytes @ 0x08001880) -- Updating C cache (64 bytes @ 0x08001880) -- Read from C cache (60 bytes @ 0x08001880) -- Data:  43 F2 F8 30 84 42 2E D2 2A 4F 38 46 05 68 01 E0 ...  returns 0x00 (0001ms, 0642ms total)
T0968 001:020 JLINK_ReadMem (0x080018BC, 0x003C Bytes, ...) -- CPU_ReadMem(64 bytes @ 0x080018C0) -- Updating C cache (64 bytes @ 0x080018C0) -- Read from C cache (60 bytes @ 0x080018BC) -- Data:  00 1B 70 60 6C 60 71 68 1B 48 00 E0 00 68 02 68 ...  returns 0x00 (0002ms, 0644ms total)
T0968 001:022 JLINK_ReadMem (0x080018F8, 0x003C Bytes, ...) -- CPU_ReadMem(64 bytes @ 0x08001900) -- Updating C cache (64 bytes @ 0x08001900) -- Read from C cache (60 bytes @ 0x080018F8) -- Data:  08 3D 2C 46 FE F7 A7 FE 61 68 0C 48 00 E0 00 68 ...  returns 0x00 (0001ms, 0645ms total)
T0968 001:023 JLINK_ReadMem (0x0800193C, 0x003C Bytes, ...) -- CPU_ReadMem(64 bytes @ 0x08001940) -- Updating C cache (64 bytes @ 0x08001940) -- Read from C cache (60 bytes @ 0x0800193C) -- Data:  50 00 00 20 4C 00 00 20 05 48 00 47 FE E7 FE E7 ...  returns 0x00 (0002ms, 0647ms total)
T0968 001:229 JLINK_ReadMem (0x40010400, 0x0014 Bytes, ...) -- CPU_ReadMem(20 bytes @ 0x40010400) -- Data:  00 00 00 00 00 00 00 00 00 00 00 00 00 00 00 00 ...  returns 0x00 (0001ms, 0648ms total)
T0968 001:230 JLINK_ReadMem (0x40010414, 0x0004 Bytes, ...) -- CPU_ReadMem(4 bytes @ 0x40010414) -- Data:  00 00 00 00  returns 0x00 (0001ms, 0649ms total)
T0968 001:260 JLINK_ReadMem (0x40011000, 0x0018 Bytes, ...) -- CPU_ReadMem(24 bytes @ 0x40011000) -- Data:  44 44 44 44 44 44 44 44 00 00 00 00 00 00 00 00 ...  returns 0x00 (0001ms, 0650ms total)
T0968 001:261 JLINK_ReadMem (0x40011018, 0x0004 Bytes, ...) -- CPU_ReadMem(4 bytes @ 0x40011018) -- Data:  00 00 00 00  returns 0x00 (0000ms, 0650ms total)
T0968 001:261 JLINK_ReadMem (0x40011000, 0x0004 Bytes, ...) -- CPU_ReadMem(4 bytes @ 0x40011000) -- Data:  44 44 44 44  returns 0x00 (0001ms, 0651ms total)
T0968 001:262 JLINK_ReadMem (0x40011000, 0x0004 Bytes, ...) -- CPU_ReadMem(4 bytes @ 0x40011000) -- Data:  44 44 44 44  returns 0x00 (0000ms, 0651ms total)
T0968 001:262 JLINK_ReadMem (0x40011000, 0x0004 Bytes, ...) -- CPU_ReadMem(4 bytes @ 0x40011000) -- Data:  44 44 44 44  returns 0x00 (0001ms, 0652ms total)
T0968 001:263 JLINK_ReadMem (0x40011000, 0x0004 Bytes, ...) -- CPU_ReadMem(4 bytes @ 0x40011000) -- Data:  44 44 44 44  returns 0x00 (0000ms, 0652ms total)
T0968 001:263 JLINK_ReadMem (0x40011000, 0x0004 Bytes, ...) -- CPU_ReadMem(4 bytes @ 0x40011000) -- Data:  44 44 44 44  returns 0x00 (0001ms, 0653ms total)
T0968 001:264 JLINK_ReadMem (0x40011000, 0x0004 Bytes, ...) -- CPU_ReadMem(4 bytes @ 0x40011000) -- Data:  44 44 44 44  returns 0x00 (0000ms, 0653ms total)
T0968 001:264 JLINK_ReadMem (0x40011000, 0x0004 Bytes, ...) -- CPU_ReadMem(4 bytes @ 0x40011000) -- Data:  44 44 44 44  returns 0x00 (0001ms, 0654ms total)
T0968 001:265 JLINK_ReadMem (0x40011000, 0x0004 Bytes, ...) -- CPU_ReadMem(4 bytes @ 0x40011000) -- Data:  44 44 44 44  returns 0x00 (0000ms, 0654ms total)
T0968 001:265 JLINK_ReadMem (0x40011000, 0x0004 Bytes, ...) -- CPU_ReadMem(4 bytes @ 0x40011000) -- Data:  44 44 44 44  returns 0x00 (0001ms, 0655ms total)
T0968 001:266 JLINK_ReadMem (0x40011000, 0x0004 Bytes, ...) -- CPU_ReadMem(4 bytes @ 0x40011000) -- Data:  44 44 44 44  returns 0x00 (0000ms, 0655ms total)
T0968 001:266 JLINK_ReadMem (0x40011000, 0x0004 Bytes, ...) -- CPU_ReadMem(4 bytes @ 0x40011000) -- Data:  44 44 44 44  returns 0x00 (0000ms, 0655ms total)
T0968 001:266 JLINK_ReadMem (0x40011000, 0x0004 Bytes, ...) -- CPU_ReadMem(4 bytes @ 0x40011000) -- Data:  44 44 44 44  returns 0x00 (0001ms, 0656ms total)
T0968 001:267 JLINK_ReadMem (0x40011000, 0x0004 Bytes, ...) -- CPU_ReadMem(4 bytes @ 0x40011000) -- Data:  44 44 44 44  returns 0x00 (0001ms, 0657ms total)
T0968 001:268 JLINK_ReadMem (0x40011000, 0x0004 Bytes, ...) -- CPU_ReadMem(4 bytes @ 0x40011000) -- Data:  44 44 44 44  returns 0x00 (0000ms, 0657ms total)
T0968 001:268 JLINK_ReadMem (0x40011000, 0x0004 Bytes, ...) -- CPU_ReadMem(4 bytes @ 0x40011000) -- Data:  44 44 44 44  returns 0x00 (0001ms, 0658ms total)
T0968 001:269 JLINK_ReadMem (0x40011000, 0x0004 Bytes, ...) -- CPU_ReadMem(4 bytes @ 0x40011000) -- Data:  44 44 44 44  returns 0x00 (0000ms, 0658ms total)
T0968 001:269 JLINK_ReadMem (0x40011000, 0x0004 Bytes, ...) -- CPU_ReadMem(4 bytes @ 0x40011000) -- Data:  44 44 44 44  returns 0x00 (0001ms, 0659ms total)
T0968 001:270 JLINK_ReadMem (0x40011004, 0x0004 Bytes, ...) -- CPU_ReadMem(4 bytes @ 0x40011004) -- Data:  44 44 44 44  returns 0x00 (0000ms, 0659ms total)
T0968 001:270 JLINK_ReadMem (0x40011004, 0x0004 Bytes, ...) -- CPU_ReadMem(4 bytes @ 0x40011004) -- Data:  44 44 44 44  returns 0x00 (0001ms, 0660ms total)
T0968 001:271 JLINK_ReadMem (0x40011004, 0x0004 Bytes, ...) -- CPU_ReadMem(4 bytes @ 0x40011004) -- Data:  44 44 44 44  returns 0x00 (0000ms, 0660ms total)
T0968 001:271 JLINK_ReadMem (0x40011004, 0x0004 Bytes, ...) -- CPU_ReadMem(4 bytes @ 0x40011004) -- Data:  44 44 44 44  returns 0x00 (0001ms, 0661ms total)
T0968 001:272 JLINK_ReadMem (0x40011004, 0x0004 Bytes, ...) -- CPU_ReadMem(4 bytes @ 0x40011004) -- Data:  44 44 44 44  returns 0x00 (0000ms, 0661ms total)
T0968 001:272 JLINK_ReadMem (0x40011004, 0x0004 Bytes, ...) -- CPU_ReadMem(4 bytes @ 0x40011004) -- Data:  44 44 44 44  returns 0x00 (0001ms, 0662ms total)
T0968 001:273 JLINK_ReadMem (0x40011004, 0x0004 Bytes, ...) -- CPU_ReadMem(4 bytes @ 0x40011004) -- Data:  44 44 44 44  returns 0x00 (0000ms, 0662ms total)
T0968 001:273 JLINK_ReadMem (0x40011004, 0x0004 Bytes, ...) -- CPU_ReadMem(4 bytes @ 0x40011004) -- Data:  44 44 44 44  returns 0x00 (0000ms, 0662ms total)
T0968 001:273 JLINK_ReadMem (0x40011004, 0x0004 Bytes, ...) -- CPU_ReadMem(4 bytes @ 0x40011004) -- Data:  44 44 44 44  returns 0x00 (0001ms, 0663ms total)
T0968 001:274 JLINK_ReadMem (0x40011004, 0x0004 Bytes, ...) -- CPU_ReadMem(4 bytes @ 0x40011004) -- Data:  44 44 44 44  returns 0x00 (0000ms, 0663ms total)
T0968 001:274 JLINK_ReadMem (0x40011004, 0x0004 Bytes, ...) -- CPU_ReadMem(4 bytes @ 0x40011004) -- Data:  44 44 44 44  returns 0x00 (0001ms, 0664ms total)
T0968 001:275 JLINK_ReadMem (0x40011004, 0x0004 Bytes, ...) -- CPU_ReadMem(4 bytes @ 0x40011004) -- Data:  44 44 44 44  returns 0x00 (0000ms, 0664ms total)
T0968 001:275 JLINK_ReadMem (0x40011004, 0x0004 Bytes, ...) -- CPU_ReadMem(4 bytes @ 0x40011004) -- Data:  44 44 44 44  returns 0x00 (0001ms, 0665ms total)
T0968 001:276 JLINK_ReadMem (0x40011004, 0x0004 Bytes, ...) -- CPU_ReadMem(4 bytes @ 0x40011004) -- Data:  44 44 44 44  returns 0x00 (0000ms, 0665ms total)
T0968 001:276 JLINK_ReadMem (0x40011004, 0x0004 Bytes, ...) -- CPU_ReadMem(4 bytes @ 0x40011004) -- Data:  44 44 44 44  returns 0x00 (0001ms, 0666ms total)
T0968 001:277 JLINK_ReadMem (0x40011004, 0x0004 Bytes, ...) -- CPU_ReadMem(4 bytes @ 0x40011004) -- Data:  44 44 44 44  returns 0x00 (0000ms, 0666ms total)
T0968 001:277 JLINK_ReadMem (0x40011004, 0x0004 Bytes, ...) -- CPU_ReadMem(4 bytes @ 0x40011004) -- Data:  44 44 44 44  returns 0x00 (0001ms, 0667ms total)
T0968 001:307 JLINK_ReadMem (0xE000E004, 0x0004 Bytes, ...) -- CPU_ReadMem(4 bytes @ 0xE000E004) -- Data:  01 00 00 00  returns 0x00 (0000ms, 0667ms total)
T0968 001:307 JLINK_ReadMem (0xE000E100, 0x0004 Bytes, ...) -- CPU_ReadMem(4 bytes @ 0xE000E100) -- Data:  00 00 00 00  returns 0x00 (0001ms, 0668ms total)
T0968 001:308 JLINK_ReadMem (0xE000E104, 0x0004 Bytes, ...) -- CPU_ReadMem(4 bytes @ 0xE000E104) -- Data:  00 00 00 00  returns 0x00 (0000ms, 0668ms total)
T0968 001:308 JLINK_ReadMem (0xE000E180, 0x0004 Bytes, ...) -- CPU_ReadMem(4 bytes @ 0xE000E180) -- Data:  00 00 00 00  returns 0x00 (0001ms, 0669ms total)
T0968 001:309 JLINK_ReadMem (0xE000E184, 0x0004 Bytes, ...) -- CPU_ReadMem(4 bytes @ 0xE000E184) -- Data:  00 00 00 00  returns 0x00 (0000ms, 0669ms total)
T0968 001:309 JLINK_ReadMem (0xE000E200, 0x0004 Bytes, ...) -- CPU_ReadMem(4 bytes @ 0xE000E200) -- Data:  00 00 00 00  returns 0x00 (0001ms, 0670ms total)
T0968 001:310 JLINK_ReadMem (0xE000E204, 0x0004 Bytes, ...) -- CPU_ReadMem(4 bytes @ 0xE000E204) -- Data:  00 00 00 00  returns 0x00 (0000ms, 0670ms total)
T0968 001:310 JLINK_ReadMem (0xE000E280, 0x0004 Bytes, ...) -- CPU_ReadMem(4 bytes @ 0xE000E280) -- Data:  00 00 00 00  returns 0x00 (0001ms, 0671ms total)
T0968 001:311 JLINK_ReadMem (0xE000E284, 0x0004 Bytes, ...) -- CPU_ReadMem(4 bytes @ 0xE000E284) -- Data:  00 00 00 00  returns 0x00 (0000ms, 0671ms total)
T0968 001:311 JLINK_ReadMem (0xE000E300, 0x0004 Bytes, ...) -- CPU_ReadMem(4 bytes @ 0xE000E300) -- Data:  00 00 00 00  returns 0x00 (0001ms, 0672ms total)
T0968 001:312 JLINK_ReadMem (0xE000E304, 0x0004 Bytes, ...) -- CPU_ReadMem(4 bytes @ 0xE000E304) -- Data:  00 00 00 00  returns 0x00 (0000ms, 0672ms total)
T0968 001:312 JLINK_ReadMem (0xE000E400, 0x0038 Bytes, ...) -- CPU_ReadMem(56 bytes @ 0xE000E400) -- Data:  00 00 00 00 00 00 00 00 00 00 00 00 00 00 00 00 ...  returns 0x00 (0001ms, 0673ms total)
T0968 001:313 JLINK_ReadMem (0xE000E438, 0x0004 Bytes, ...) -- CPU_ReadMem(4 bytes @ 0xE000E438) -- Data:  00 00 00 00  returns 0x00 (0001ms, 0674ms total)
T0968 001:314 JLINK_ReadMem (0xE000EF00, 0x0004 Bytes, ...) -- CPU_ReadMem(4 bytes @ 0xE000EF00) -- Data:  00 00 00 00  returns 0x00 (0000ms, 0674ms total)
T0968 001:314 JLINK_ReadMem (0xE000E004, 0x0004 Bytes, ...) -- CPU_ReadMem(4 bytes @ 0xE000E004) -- Data:  01 00 00 00  returns 0x00 (0000ms, 0674ms total)
T0968 001:315 JLINK_ReadMem (0xE000E004, 0x0004 Bytes, ...) -- CPU_ReadMem(4 bytes @ 0xE000E004) -- Data:  01 00 00 00  returns 0x00 (0000ms, 0674ms total)
T183C 002:358 JLINK_SetBPEx(Addr = 0x08006462, Type = 0xFFFFFFF2)  returns 0x00000001 (0000ms, 0674ms total)
T183C 002:359 JLINK_Go() -- CPU_WriteMem(4 bytes @ 0xE0002000) -- CPU_WriteMem(4 bytes @ 0xE0002008) -- CPU_WriteMem(4 bytes @ 0xE000200C) -- CPU_WriteMem(4 bytes @ 0xE0002010) -- CPU_WriteMem(4 bytes @ 0xE0002014) -- CPU_WriteMem(4 bytes @ 0xE0002018) -- CPU_WriteMem(4 bytes @ 0xE000201C) -- CPU_WriteMem(4 bytes @ 0xE0001004) (0004ms, 0679ms total)
T183C 002:464 JLINK_IsHalted()  returns TRUE (0003ms, 0682ms total)
T183C 002:467 JLINK_Halt()  returns 0x00 (0000ms, 0679ms total)
T183C 002:467 JLINK_IsHalted()  returns TRUE (0000ms, 0679ms total)
T183C 002:467 JLINK_IsHalted()  returns TRUE (0000ms, 0679ms total)
T183C 002:467 JLINK_IsHalted()  returns TRUE (0000ms, 0679ms total)
T183C 002:467 JLINK_ReadReg(R15 (PC))  returns 0x08006462 (0000ms, 0679ms total)
T183C 002:467 JLINK_ReadReg(XPSR)  returns 0x61000000 (0000ms, 0679ms total)
T183C 002:467 JLINK_ClrBPEx(BPHandle = 0x00000001)  returns 0x00 (0000ms, 0679ms total)
T183C 002:467 JLINK_ReadMemU32(0xE000ED30, 0x0001 Items, ...) -- CPU_ReadMem(4 bytes @ 0xE000ED30) -- Data:  03 00 00 00  returns 0x01 (0001ms, 0680ms total)
T183C 002:468 JLINK_ReadMemU32(0xE0001028, 0x0001 Items, ...) -- CPU_ReadMem(4 bytes @ 0xE0001028) -- Data:  00 00 00 00  returns 0x01 (0001ms, 0681ms total)
T183C 002:469 JLINK_ReadMemU32(0xE0001038, 0x0001 Items, ...) -- CPU_ReadMem(4 bytes @ 0xE0001038) -- Data:  00 02 00 00  returns 0x01 (0000ms, 0681ms total)
T183C 002:469 JLINK_ReadMemU32(0xE0001048, 0x0001 Items, ...) -- CPU_ReadMem(4 bytes @ 0xE0001048) -- Data:  00 00 00 00  returns 0x01 (0001ms, 0682ms total)
T183C 002:470 JLINK_ReadMemU32(0xE0001058, 0x0001 Items, ...) -- CPU_ReadMem(4 bytes @ 0xE0001058) -- Data:  00 00 00 00  returns 0x01 (0000ms, 0682ms total)
T183C 002:470 JLINK_ReadReg(R0)  returns 0x08006463 (0000ms, 0682ms total)
T183C 002:470 JLINK_ReadReg(R1)  returns 0x20004E88 (0000ms, 0682ms total)
T183C 002:470 JLINK_ReadReg(R2)  returns 0x00000000 (0000ms, 0682ms total)
T183C 002:470 JLINK_ReadReg(R3)  returns 0x08011659 (0000ms, 0682ms total)
T183C 002:470 JLINK_ReadReg(R4)  returns 0x08013C6C (0000ms, 0682ms total)
T183C 002:470 JLINK_ReadReg(R5)  returns 0x08013C6C (0000ms, 0682ms total)
T183C 002:470 JLINK_ReadReg(R6)  returns 0x00000000 (0000ms, 0682ms total)
T183C 002:470 JLINK_ReadReg(R7)  returns 0x00000000 (0000ms, 0682ms total)
T183C 002:470 JLINK_ReadReg(R8)  returns 0x00000000 (0000ms, 0682ms total)
T183C 002:470 JLINK_ReadReg(R9)  returns 0x00000000 (0000ms, 0682ms total)
T183C 002:470 JLINK_ReadReg(R10)  returns 0x00000000 (0000ms, 0682ms total)
T183C 002:470 JLINK_ReadReg(R11)  returns 0x00000000 (0000ms, 0682ms total)
T183C 002:470 JLINK_ReadReg(R12)  returns 0x00000000 (0000ms, 0682ms total)
T183C 002:470 JLINK_ReadReg(R13 (SP))  returns 0x20004E88 (0000ms, 0682ms total)
T183C 002:470 JLINK_ReadReg(R14)  returns 0x08010DFD (0001ms, 0683ms total)
T183C 002:471 JLINK_ReadReg(R15 (PC))  returns 0x08006462 (0000ms, 0683ms total)
T183C 002:471 JLINK_ReadReg(XPSR)  returns 0x61000000 (0000ms, 0683ms total)
T183C 002:471 JLINK_ReadReg(MSP)  returns 0x20004E88 (0000ms, 0683ms total)
T183C 002:471 JLINK_ReadReg(PSP)  returns 0x20000D48 (0000ms, 0683ms total)
T183C 002:471 JLINK_ReadReg(CFBP)  returns 0x00000000 (0000ms, 0683ms total)
T0968 002:474 JLINK_ReadMemU32(0xE0001004, 0x0001 Items, ...) -- CPU_ReadMem(4 bytes @ 0xE0001004) -- Data:  93 76 00 00  returns 0x01 (0000ms, 0683ms total)
T0968 002:474 JLINK_ReadMem (0xE000E004, 0x0004 Bytes, ...) -- CPU_ReadMem(4 bytes @ 0xE000E004) -- Data:  01 00 00 00  returns 0x00 (0001ms, 0684ms total)
T0968 002:475 JLINK_ReadMem (0xE000E100, 0x0004 Bytes, ...) -- CPU_ReadMem(4 bytes @ 0xE000E100) -- Data:  00 00 00 00  returns 0x00 (0000ms, 0684ms total)
T0968 002:475 JLINK_ReadMem (0xE000E104, 0x0004 Bytes, ...) -- CPU_ReadMem(4 bytes @ 0xE000E104) -- Data:  00 00 00 00  returns 0x00 (0001ms, 0685ms total)
T0968 002:476 JLINK_ReadMem (0xE000E180, 0x0004 Bytes, ...) -- CPU_ReadMem(4 bytes @ 0xE000E180) -- Data:  00 00 00 00  returns 0x00 (0000ms, 0685ms total)
T0968 002:476 JLINK_ReadMem (0xE000E184, 0x0004 Bytes, ...) -- CPU_ReadMem(4 bytes @ 0xE000E184) -- Data:  00 00 00 00  returns 0x00 (0001ms, 0686ms total)
T0968 002:477 JLINK_ReadMem (0xE000E200, 0x0004 Bytes, ...) -- CPU_ReadMem(4 bytes @ 0xE000E200) -- Data:  00 00 00 00  returns 0x00 (0000ms, 0686ms total)
T0968 002:477 JLINK_ReadMem (0xE000E204, 0x0004 Bytes, ...) -- CPU_ReadMem(4 bytes @ 0xE000E204) -- Data:  00 00 00 00  returns 0x00 (0001ms, 0687ms total)
T0968 002:478 JLINK_ReadMem (0xE000E280, 0x0004 Bytes, ...) -- CPU_ReadMem(4 bytes @ 0xE000E280) -- Data:  00 00 00 00  returns 0x00 (0000ms, 0687ms total)
T0968 002:478 JLINK_ReadMem (0xE000E284, 0x0004 Bytes, ...) -- CPU_ReadMem(4 bytes @ 0xE000E284) -- Data:  00 00 00 00  returns 0x00 (0001ms, 0688ms total)
T0968 002:479 JLINK_ReadMem (0xE000E300, 0x0004 Bytes, ...) -- CPU_ReadMem(4 bytes @ 0xE000E300) -- Data:  00 00 00 00  returns 0x00 (0000ms, 0688ms total)
T0968 002:479 JLINK_ReadMem (0xE000E304, 0x0004 Bytes, ...) -- CPU_ReadMem(4 bytes @ 0xE000E304) -- Data:  00 00 00 00  returns 0x00 (0001ms, 0689ms total)
T0968 002:480 JLINK_ReadMem (0xE000E400, 0x0038 Bytes, ...) -- CPU_ReadMem(56 bytes @ 0xE000E400) -- Data:  00 00 00 00 00 00 00 00 00 00 00 00 00 00 00 00 ...  returns 0x00 (0001ms, 0690ms total)
T0968 002:481 JLINK_ReadMem (0xE000E438, 0x0004 Bytes, ...) -- CPU_ReadMem(4 bytes @ 0xE000E438) -- Data:  00 00 00 00  returns 0x00 (0000ms, 0690ms total)
T0968 002:481 JLINK_ReadMem (0xE000EF00, 0x0004 Bytes, ...) -- CPU_ReadMem(4 bytes @ 0xE000EF00) -- Data:  00 00 00 00  returns 0x00 (0001ms, 0691ms total)
T0968 002:483 JLINK_ReadMem (0x40010400, 0x0014 Bytes, ...) -- CPU_ReadMem(20 bytes @ 0x40010400) -- Data:  00 00 00 00 00 00 00 00 00 00 00 00 00 00 00 00 ...  returns 0x00 (0001ms, 0692ms total)
T0968 002:484 JLINK_ReadMem (0x40010414, 0x0004 Bytes, ...) -- CPU_ReadMem(4 bytes @ 0x40010414) -- Data:  00 00 00 00  returns 0x00 (0001ms, 0693ms total)
T0968 002:485 JLINK_ReadMem (0x40011000, 0x0018 Bytes, ...) -- CPU_ReadMem(24 bytes @ 0x40011000) -- Data:  44 44 44 44 44 44 44 44 00 00 00 00 00 00 00 00 ...  returns 0x00 (0001ms, 0694ms total)
T0968 002:486 JLINK_ReadMem (0x40011018, 0x0004 Bytes, ...) -- CPU_ReadMem(4 bytes @ 0x40011018) -- Data:  00 00 00 00  returns 0x00 (0001ms, 0695ms total)
T0968 002:487 JLINK_ReadMem (0x08006460, 0x003C Bytes, ...) -- CPU_ReadMem(128 bytes @ 0x08006440) -- Updating C cache (128 bytes @ 0x08006440) -- Read from C cache (60 bytes @ 0x08006460) -- Data:  10 BD 1F B5 00 22 04 21 05 20 FA F7 8C FE 24 49 ...  returns 0x00 (0002ms, 0697ms total)
T0968 002:489 JLINK_ReadMem (0x0800645A, 0x0002 Bytes, ...) -- Read from C cache (2 bytes @ 0x0800645A) -- Data:  04 20  returns 0x00 (0001ms, 0698ms total)
T0968 002:490 JLINK_ReadMem (0x0800645C, 0x003C Bytes, ...) -- Read from C cache (60 bytes @ 0x0800645C) -- Data:  FC F7 68 F9 10 BD 1F B5 00 22 04 21 05 20 FA F7 ...  returns 0x00 (0000ms, 0698ms total)
T183C 006:479 JLINK_Go() -- CPU_WriteMem(4 bytes @ 0xE0002008) (0001ms, 0699ms total)
T183C 006:581 JLINK_IsHalted()  returns FALSE (0000ms, 0699ms total)
T183C 006:682 JLINK_IsHalted()  returns FALSE (0000ms, 0699ms total)
T183C 006:783 JLINK_IsHalted()  returns FALSE (0001ms, 0700ms total)
T183C 006:884 JLINK_IsHalted()  returns FALSE (0001ms, 0700ms total)
T183C 006:986 JLINK_IsHalted()  returns FALSE (0000ms, 0699ms total)
T183C 007:087 JLINK_IsHalted()  returns FALSE (0000ms, 0699ms total)
T183C 007:188 JLINK_IsHalted()  returns FALSE (0001ms, 0700ms total)
T183C 007:289 JLINK_IsHalted()  returns FALSE (0000ms, 0699ms total)
